T3260 1950:672 SEGGER J-Link V4.84c Log File (0001ms, 26751ms total)
T3260 1950:672 DLL Compiled: Apr 16 2014 18:53:07 (0001ms, 26751ms total)
T3260 1950:672 Logging started @ 2015-03-28 21:08 (0001ms, 26751ms total)
T3260 1950:703 JLINK_ExecCommand("Device = AT91SAM3X8E", ...)Device "ATSAM3X8E" selected (512 KB flash, 64 KB RAM).  returns 0x00 (0001ms, 26752ms total)
T3260 1951:243 JLINK_ExecCommand("ProjectFile = C:\Users\Keenan\Documents\GitHub\CDH-OBC_PhaseII\jlink.config", ...)  returns 0x00 (0001ms, 26753ms total)
T3260 1951:276 JLINK_ExecCommand("Device = AT91SAM3X8E", ...)Device "ATSAM3X8E" selected (512 KB flash, 64 KB RAM).  returns 0x00 (0000ms, 26753ms total)
T3260 1951:276 JLINK_TIF_Select(JLINKARM_TIF_JTAG)  returns 0x00 (0001ms, 26754ms total)
T3260 1951:277 JLINK_GetIdData(...) >0x2F8 JTAG>TotalIRLen = 4, IRPrint = 0x01 >0x30 JTAG> >0x210 JTAG> >0x70 JTAG> >0x40 JTAG> >0x40 JTAG> >0x40 JTAG> >0x48 JTAG> >0x78 JTAG> >0x40 JTAG> >0x30 JTAG> >0x40 JTAG> >0x40 JTAG> >0x30 JTAG> >0x40 JTAG> >0x48 JTAG>Found Cortex-M3 r2p0, Little endian. -- CPU_WriteMem(4 bytes @ 0xE0002000) -- CPU_ReadMem(4 bytes @ 0xE000EDF0) -- CPU_ReadMem(4 bytes @ 0xE0002000)FPUnit: 6 code (BP) slots and 2 literal slots -- CPU_ReadMem(4 bytes @ 0xE000EDFC)
 -- CPU_ReadMem(4 bytes @ 0xE0001000) -- CPU_WriteMem(4 bytes @ 0xE0001000) -- CPU_ReadMem(4 bytes @ 0xE00FF010)TPIU fitted. -- CPU_ReadMem(4 bytes @ 0xE00FF014) -- CPU_ReadMem(4 bytes @ 0xE00FF018) ScanLen=4 NumDevices=1 aId[0]=0x4BA00477 aIrRead[0]=0 aScanLen[0]=0 aScanRead[0]=0 (0015ms, 26769ms total)
T3260 1951:292 JLINK_ConfigJTAG(IRPre = 0, DRPre = 0) (0000ms, 26769ms total)
T3260 1951:292 JLINK_SetSpeed(1000) (0001ms, 26770ms total)
T3260 1951:293 JLINK_ResetPullsRESET(OFF) (0000ms, 26770ms total)
T3260 1951:293 JLINK_Connect() >0x2F8 JTAG>TotalIRLen = 4, IRPrint = 0x01 >0x30 JTAG> >0x210 JTAG> >0x70 JTAG> >0x40 JTAG> >0x40 JTAG> >0x40 JTAG> >0x48 JTAG> >0x78 JTAG> >0x40 JTAG> >0x30 JTAG> >0x40 JTAG> >0x40 JTAG> >0x30 JTAG> >0x40 JTAG> >0x48 JTAG>Found Cortex-M3 r2p0, Little endian. -- CPU_WriteMem(4 bytes @ 0xE0002000) -- CPU_ReadMem(4 bytes @ 0xE000EDF0) -- CPU_ReadMem(4 bytes @ 0xE0002000)FPUnit: 6 code (BP) slots and 2 literal slots -- CPU_ReadMem(4 bytes @ 0xE000EDFC)
 -- CPU_ReadMem(4 bytes @ 0xE0001000) -- CPU_WriteMem(4 bytes @ 0xE0001000) -- CPU_ReadMem(4 bytes @ 0xE00FF010)TPIU fitted. -- CPU_ReadMem(4 bytes @ 0xE00FF014) -- CPU_ReadMem(4 bytes @ 0xE00FF018)  returns 0x00 (0014ms, 26784ms total)
T3260 1951:307 JLINK_GetDebugInfo(0x100) -- Value=0xE00FF003  returns 0x00 (0000ms, 26784ms total)
T3260 1951:307 JLINK_ReadMemU8(0xE00FFFF0, 0x0001 Items, ...) -- CPU is running -- CPU_ReadMem(1 bytes @ 0xE00FFFF0) -- Data:  0D  returns 0x01 (0001ms, 26785ms total)
T3260 1951:308 JLINK_ReadMemU8(0xE00FFFF4, 0x0001 Items, ...) -- CPU is running -- CPU_ReadMem(1 bytes @ 0xE00FFFF4) -- Data:  10  returns 0x01 (0000ms, 26785ms total)
T3260 1951:308 JLINK_ReadMemU8(0xE00FFFF8, 0x0001 Items, ...) -- CPU is running -- CPU_ReadMem(1 bytes @ 0xE00FFFF8) -- Data:  05  returns 0x01 (0001ms, 26786ms total)
T3260 1951:309 JLINK_ReadMemU8(0xE00FFFFC, 0x0001 Items, ...) -- CPU is running -- CPU_ReadMem(1 bytes @ 0xE00FFFFC) -- Data:  B1  returns 0x01 (0001ms, 26787ms total)
T3260 1951:310 JLINK_ReadMemU8(0xE00FFFD0, 0x0001 Items, ...) -- CPU is running -- CPU_ReadMem(1 bytes @ 0xE00FFFD0) -- Data:  00  returns 0x01 (0001ms, 26788ms total)
T3260 1951:311 JLINK_ReadMemU8(0xE00FFFD4, 0x0001 Items, ...) -- CPU is running -- CPU_ReadMem(1 bytes @ 0xE00FFFD4) -- Data:  00  returns 0x01 (0001ms, 26789ms total)
T3260 1951:312 JLINK_ReadMemU8(0xE00FFFD8, 0x0001 Items, ...) -- CPU is running -- CPU_ReadMem(1 bytes @ 0xE00FFFD8) -- Data:  00  returns 0x01 (0001ms, 26790ms total)
T3260 1951:313 JLINK_ReadMemU8(0xE00FFFDC, 0x0001 Items, ...) -- CPU is running -- CPU_ReadMem(1 bytes @ 0xE00FFFDC) -- Data:  00  returns 0x01 (0000ms, 26790ms total)
T3260 1951:313 JLINK_ReadMemU8(0xE00FFFE0, 0x0001 Items, ...) -- CPU is running -- CPU_ReadMem(1 bytes @ 0xE00FFFE0) -- Data:  00  returns 0x01 (0001ms, 26791ms total)
T3260 1951:314 JLINK_ReadMemU8(0xE00FFFE4, 0x0001 Items, ...) -- CPU is running -- CPU_ReadMem(1 bytes @ 0xE00FFFE4) -- Data:  00  returns 0x01 (0001ms, 26792ms total)
T3260 1951:315 JLINK_ReadMemU8(0xE00FFFE8, 0x0001 Items, ...) -- CPU is running -- CPU_ReadMem(1 bytes @ 0xE00FFFE8) -- Data:  00  returns 0x01 (0001ms, 26793ms total)
T3260 1951:316 JLINK_ReadMemU8(0xE00FFFEC, 0x0001 Items, ...) -- CPU is running -- CPU_ReadMem(1 bytes @ 0xE00FFFEC) -- Data:  00  returns 0x01 (0001ms, 26794ms total)
T3260 1951:317 JLINK_ReadMemU32(0xE00FF000, 0x0001 Items, ...) -- CPU is running -- CPU_ReadMem(4 bytes @ 0xE00FF000) -- Data:  03 F0 F0 FF  returns 0x01 (0001ms, 26795ms total)
T3260 1951:318 JLINK_ReadMemU8(0xE000EFF0, 0x0001 Items, ...) -- CPU is running -- CPU_ReadMem(1 bytes @ 0xE000EFF0) -- Data:  0D  returns 0x01 (0000ms, 26795ms total)
T3260 1951:318 JLINK_ReadMemU8(0xE000EFF4, 0x0001 Items, ...) -- CPU is running -- CPU_ReadMem(1 bytes @ 0xE000EFF4) -- Data:  E0  returns 0x01 (0001ms, 26796ms total)
T3260 1951:319 JLINK_ReadMemU8(0xE000EFF8, 0x0001 Items, ...) -- CPU is running -- CPU_ReadMem(1 bytes @ 0xE000EFF8) -- Data:  05  returns 0x01 (0001ms, 26797ms total)
T3260 1951:320 JLINK_ReadMemU8(0xE000EFFC, 0x0001 Items, ...) -- CPU is running -- CPU_ReadMem(1 bytes @ 0xE000EFFC) -- Data:  B1  returns 0x01 (0001ms, 26798ms total)
T3260 1951:321 JLINK_ReadMemU8(0xE000EFD0, 0x0001 Items, ...) -- CPU is running -- CPU_ReadMem(1 bytes @ 0xE000EFD0) -- Data:  04  returns 0x01 (0001ms, 26799ms total)
T3260 1951:322 JLINK_ReadMemU8(0xE000EFD4, 0x0001 Items, ...) -- CPU is running -- CPU_ReadMem(1 bytes @ 0xE000EFD4) -- Data:  00  returns 0x01 (0000ms, 26799ms total)
T3260 1951:322 JLINK_ReadMemU8(0xE000EFD8, 0x0001 Items, ...) -- CPU is running -- CPU_ReadMem(1 bytes @ 0xE000EFD8) -- Data:  00  returns 0x01 (0001ms, 26800ms total)
T3260 1951:323 JLINK_ReadMemU8(0xE000EFDC, 0x0001 Items, ...) -- CPU is running -- CPU_ReadMem(1 bytes @ 0xE000EFDC) -- Data:  00  returns 0x01 (0001ms, 26801ms total)
T3260 1951:324 JLINK_ReadMemU8(0xE000EFE0, 0x0001 Items, ...) -- CPU is running -- CPU_ReadMem(1 bytes @ 0xE000EFE0) -- Data:  00  returns 0x01 (0001ms, 26802ms total)
T3260 1951:325 JLINK_ReadMemU8(0xE000EFE4, 0x0001 Items, ...) -- CPU is running -- CPU_ReadMem(1 bytes @ 0xE000EFE4) -- Data:  B0  returns 0x01 (0001ms, 26803ms total)
T3260 1951:326 JLINK_ReadMemU8(0xE000EFE8, 0x0001 Items, ...) -- CPU is running -- CPU_ReadMem(1 bytes @ 0xE000EFE8) -- Data:  2B  returns 0x01 (0001ms, 26804ms total)
T3260 1951:327 JLINK_ReadMemU8(0xE000EFEC, 0x0001 Items, ...) -- CPU is running -- CPU_ReadMem(1 bytes @ 0xE000EFEC) -- Data:  00  returns 0x01 (0000ms, 26804ms total)
T3260 1951:327 JLINK_ReadMemU32(0xE00FF004, 0x0001 Items, ...) -- CPU is running -- CPU_ReadMem(4 bytes @ 0xE00FF004) -- Data:  03 20 F0 FF  returns 0x01 (0001ms, 26805ms total)
T3260 1951:328 JLINK_ReadMemU8(0xE0001FF0, 0x0001 Items, ...) -- CPU is running -- CPU_ReadMem(1 bytes @ 0xE0001FF0) -- Data:  0D  returns 0x01 (0001ms, 26806ms total)
T3260 1951:329 JLINK_ReadMemU8(0xE0001FF4, 0x0001 Items, ...) -- CPU is running -- CPU_ReadMem(1 bytes @ 0xE0001FF4) -- Data:  E0  returns 0x01 (0001ms, 26807ms total)
T3260 1951:330 JLINK_ReadMemU8(0xE0001FF8, 0x0001 Items, ...) -- CPU is running -- CPU_ReadMem(1 bytes @ 0xE0001FF8) -- Data:  05  returns 0x01 (0001ms, 26808ms total)
T3260 1951:331 JLINK_ReadMemU8(0xE0001FFC, 0x0001 Items, ...) -- CPU is running -- CPU_ReadMem(1 bytes @ 0xE0001FFC) -- Data:  B1  returns 0x01 (0000ms, 26808ms total)
T3260 1951:331 JLINK_ReadMemU8(0xE0001FD0, 0x0001 Items, ...) -- CPU is running -- CPU_ReadMem(1 bytes @ 0xE0001FD0) -- Data:  04  returns 0x01 (0001ms, 26809ms total)
T3260 1951:332 JLINK_ReadMemU8(0xE0001FD4, 0x0001 Items, ...) -- CPU is running -- CPU_ReadMem(1 bytes @ 0xE0001FD4) -- Data:  00  returns 0x01 (0001ms, 26810ms total)
T3260 1951:333 JLINK_ReadMemU8(0xE0001FD8, 0x0001 Items, ...) -- CPU is running -- CPU_ReadMem(1 bytes @ 0xE0001FD8) -- Data:  00  returns 0x01 (0001ms, 26811ms total)
T3260 1951:334 JLINK_ReadMemU8(0xE0001FDC, 0x0001 Items, ...) -- CPU is running -- CPU_ReadMem(1 bytes @ 0xE0001FDC) -- Data:  00  returns 0x01 (0001ms, 26812ms total)
T3260 1951:335 JLINK_ReadMemU8(0xE0001FE0, 0x0001 Items, ...) -- CPU is running -- CPU_ReadMem(1 bytes @ 0xE0001FE0) -- Data:  02  returns 0x01 (0001ms, 26813ms total)
T3260 1951:336 JLINK_ReadMemU8(0xE0001FE4, 0x0001 Items, ...) -- CPU is running -- CPU_ReadMem(1 bytes @ 0xE0001FE4) -- Data:  B0  returns 0x01 (0001ms, 26814ms total)
T3260 1951:337 JLINK_ReadMemU8(0xE0001FE8, 0x0001 Items, ...) -- CPU is running -- CPU_ReadMem(1 bytes @ 0xE0001FE8) -- Data:  2B  returns 0x01 (0001ms, 26815ms total)
T3260 1951:338 JLINK_ReadMemU8(0xE0001FEC, 0x0001 Items, ...) -- CPU is running -- CPU_ReadMem(1 bytes @ 0xE0001FEC) -- Data:  00  returns 0x01 (0000ms, 26815ms total)
T3260 1951:338 JLINK_ReadMemU32(0xE00FF008, 0x0001 Items, ...) -- CPU is running -- CPU_ReadMem(4 bytes @ 0xE00FF008) -- Data:  03 30 F0 FF  returns 0x01 (0001ms, 26816ms total)
T3260 1951:339 JLINK_ReadMemU8(0xE0002FF0, 0x0001 Items, ...) -- CPU is running -- CPU_ReadMem(1 bytes @ 0xE0002FF0) -- Data:  0D  returns 0x01 (0001ms, 26817ms total)
T3260 1951:340 JLINK_ReadMemU8(0xE0002FF4, 0x0001 Items, ...) -- CPU is running -- CPU_ReadMem(1 bytes @ 0xE0002FF4) -- Data:  E0  returns 0x01 (0001ms, 26818ms total)
T3260 1951:341 JLINK_ReadMemU8(0xE0002FF8, 0x0001 Items, ...) -- CPU is running -- CPU_ReadMem(1 bytes @ 0xE0002FF8) -- Data:  05  returns 0x01 (0001ms, 26819ms total)
T3260 1951:342 JLINK_ReadMemU8(0xE0002FFC, 0x0001 Items, ...) -- CPU is running -- CPU_ReadMem(1 bytes @ 0xE0002FFC) -- Data:  B1  returns 0x01 (0000ms, 26819ms total)
T3260 1951:342 JLINK_ReadMemU8(0xE0002FD0, 0x0001 Items, ...) -- CPU is running -- CPU_ReadMem(1 bytes @ 0xE0002FD0) -- Data:  04  returns 0x01 (0001ms, 26820ms total)
T3260 1951:343 JLINK_ReadMemU8(0xE0002FD4, 0x0001 Items, ...) -- CPU is running -- CPU_ReadMem(1 bytes @ 0xE0002FD4) -- Data:  00  returns 0x01 (0001ms, 26821ms total)
T3260 1951:344 JLINK_ReadMemU8(0xE0002FD8, 0x0001 Items, ...) -- CPU is running -- CPU_ReadMem(1 bytes @ 0xE0002FD8) -- Data:  00  returns 0x01 (0001ms, 26822ms total)
T3260 1951:345 JLINK_ReadMemU8(0xE0002FDC, 0x0001 Items, ...) -- CPU is running -- CPU_ReadMem(1 bytes @ 0xE0002FDC) -- Data:  00  returns 0x01 (0001ms, 26823ms total)
T3260 1951:346 JLINK_ReadMemU8(0xE0002FE0, 0x0001 Items, ...) -- CPU is running -- CPU_ReadMem(1 bytes @ 0xE0002FE0) -- Data:  03  returns 0x01 (0001ms, 26824ms total)
T3260 1951:347 JLINK_ReadMemU8(0xE0002FE4, 0x0001 Items, ...) -- CPU is running -- CPU_ReadMem(1 bytes @ 0xE0002FE4) -- Data:  B0  returns 0x01 (0000ms, 26824ms total)
T3260 1951:347 JLINK_ReadMemU8(0xE0002FE8, 0x0001 Items, ...) -- CPU is running -- CPU_ReadMem(1 bytes @ 0xE0002FE8) -- Data:  2B  returns 0x01 (0001ms, 26825ms total)
T3260 1951:348 JLINK_ReadMemU8(0xE0002FEC, 0x0001 Items, ...) -- CPU is running -- CPU_ReadMem(1 bytes @ 0xE0002FEC) -- Data:  00  returns 0x01 (0001ms, 26826ms total)
T3260 1951:349 JLINK_ReadMemU32(0xE00FF00C, 0x0001 Items, ...) -- CPU is running -- CPU_ReadMem(4 bytes @ 0xE00FF00C) -- Data:  03 10 F0 FF  returns 0x01 (0001ms, 26827ms total)
T3260 1951:350 JLINK_ReadMemU8(0xE0000FF0, 0x0001 Items, ...) -- CPU is running -- CPU_ReadMem(1 bytes @ 0xE0000FF0) -- Data:  0D  returns 0x01 (0001ms, 26828ms total)
T3260 1951:351 JLINK_ReadMemU8(0xE0000FF4, 0x0001 Items, ...) -- CPU is running -- CPU_ReadMem(1 bytes @ 0xE0000FF4) -- Data:  E0  returns 0x01 (0000ms, 26828ms total)
T3260 1951:351 JLINK_ReadMemU8(0xE0000FF8, 0x0001 Items, ...) -- CPU is running -- CPU_ReadMem(1 bytes @ 0xE0000FF8) -- Data:  05  returns 0x01 (0001ms, 26829ms total)
T3260 1951:352 JLINK_ReadMemU8(0xE0000FFC, 0x0001 Items, ...) -- CPU is running -- CPU_ReadMem(1 bytes @ 0xE0000FFC) -- Data:  B1  returns 0x01 (0001ms, 26830ms total)
T3260 1951:353 JLINK_ReadMemU8(0xE0000FD0, 0x0001 Items, ...) -- CPU is running -- CPU_ReadMem(1 bytes @ 0xE0000FD0) -- Data:  04  returns 0x01 (0001ms, 26831ms total)
T3260 1951:354 JLINK_ReadMemU8(0xE0000FD4, 0x0001 Items, ...) -- CPU is running -- CPU_ReadMem(1 bytes @ 0xE0000FD4) -- Data:  00  returns 0x01 (0001ms, 26832ms total)
T3260 1951:355 JLINK_ReadMemU8(0xE0000FD8, 0x0001 Items, ...) -- CPU is running -- CPU_ReadMem(1 bytes @ 0xE0000FD8) -- Data:  00  returns 0x01 (0000ms, 26832ms total)
T3260 1951:355 JLINK_ReadMemU8(0xE0000FDC, 0x0001 Items, ...) -- CPU is running -- CPU_ReadMem(1 bytes @ 0xE0000FDC) -- Data:  00  returns 0x01 (0001ms, 26833ms total)
T3260 1951:356 JLINK_ReadMemU8(0xE0000FE0, 0x0001 Items, ...) -- CPU is running -- CPU_ReadMem(1 bytes @ 0xE0000FE0) -- Data:  01  returns 0x01 (0001ms, 26834ms total)
T3260 1951:357 JLINK_ReadMemU8(0xE0000FE4, 0x0001 Items, ...) -- CPU is running -- CPU_ReadMem(1 bytes @ 0xE0000FE4) -- Data:  B0  returns 0x01 (0001ms, 26835ms total)
T3260 1951:358 JLINK_ReadMemU8(0xE0000FE8, 0x0001 Items, ...) -- CPU is running -- CPU_ReadMem(1 bytes @ 0xE0000FE8) -- Data:  2B  returns 0x01 (0001ms, 26836ms total)
T3260 1951:359 JLINK_ReadMemU8(0xE0000FEC, 0x0001 Items, ...) -- CPU is running -- CPU_ReadMem(1 bytes @ 0xE0000FEC) -- Data:  00  returns 0x01 (0001ms, 26837ms total)
T3260 1951:360 JLINK_ReadMemU32(0xE00FF010, 0x0001 Items, ...) -- CPU is running -- CPU_ReadMem(4 bytes @ 0xE00FF010) -- Data:  03 10 F4 FF  returns 0x01 (0000ms, 26837ms total)
T3260 1951:361 JLINK_ReadMemU8(0xE0040FF0, 0x0001 Items, ...) -- CPU is running -- CPU_ReadMem(1 bytes @ 0xE0040FF0) -- Data:  0D  returns 0x01 (0000ms, 26837ms total)
T3260 1951:361 JLINK_ReadMemU8(0xE0040FF4, 0x0001 Items, ...) -- CPU is running -- CPU_ReadMem(1 bytes @ 0xE0040FF4) -- Data:  90  returns 0x01 (0001ms, 26838ms total)
T3260 1951:362 JLINK_ReadMemU8(0xE0040FF8, 0x0001 Items, ...) -- CPU is running -- CPU_ReadMem(1 bytes @ 0xE0040FF8) -- Data:  05  returns 0x01 (0001ms, 26839ms total)
T3260 1951:363 JLINK_ReadMemU8(0xE0040FFC, 0x0001 Items, ...) -- CPU is running -- CPU_ReadMem(1 bytes @ 0xE0040FFC) -- Data:  B1  returns 0x01 (0001ms, 26840ms total)
T3260 1951:364 JLINK_ReadMemU8(0xE0040FD0, 0x0001 Items, ...) -- CPU is running -- CPU_ReadMem(1 bytes @ 0xE0040FD0) -- Data:  04  returns 0x01 (0000ms, 26840ms total)
T3260 1951:364 JLINK_ReadMemU8(0xE0040FD4, 0x0001 Items, ...) -- CPU is running -- CPU_ReadMem(1 bytes @ 0xE0040FD4) -- Data:  00  returns 0x01 (0001ms, 26841ms total)
T3260 1951:365 JLINK_ReadMemU8(0xE0040FD8, 0x0001 Items, ...) -- CPU is running -- CPU_ReadMem(1 bytes @ 0xE0040FD8) -- Data:  00  returns 0x01 (0001ms, 26842ms total)
T3260 1951:366 JLINK_ReadMemU8(0xE0040FDC, 0x0001 Items, ...) -- CPU is running -- CPU_ReadMem(1 bytes @ 0xE0040FDC) -- Data:  00  returns 0x01 (0001ms, 26843ms total)
T3260 1951:367 JLINK_ReadMemU8(0xE0040FE0, 0x0001 Items, ...) -- CPU is running -- CPU_ReadMem(1 bytes @ 0xE0040FE0) -- Data:  23  returns 0x01 (0001ms, 26844ms total)
T3260 1951:368 JLINK_ReadMemU8(0xE0040FE4, 0x0001 Items, ...) -- CPU is running -- CPU_ReadMem(1 bytes @ 0xE0040FE4) -- Data:  B9  returns 0x01 (0001ms, 26845ms total)
T3260 1951:369 JLINK_ReadMemU8(0xE0040FE8, 0x0001 Items, ...) -- CPU is running -- CPU_ReadMem(1 bytes @ 0xE0040FE8) -- Data:  2B  returns 0x01 (0000ms, 26845ms total)
T3260 1951:369 JLINK_ReadMemU8(0xE0040FEC, 0x0001 Items, ...) -- CPU is running -- CPU_ReadMem(1 bytes @ 0xE0040FEC) -- Data:  00  returns 0x01 (0001ms, 26846ms total)
T3260 1951:370 JLINK_ReadMemU32(0xE00FF014, 0x0001 Items, ...) -- CPU is running -- CPU_ReadMem(4 bytes @ 0xE00FF014) -- Data:  02 20 F4 FF  returns 0x01 (0001ms, 26847ms total)
T3260 1951:371 JLINK_ReadMemU32(0xE00FF018, 0x0001 Items, ...) -- CPU is running -- CPU_ReadMem(4 bytes @ 0xE00FF018) -- Data:  00 00 00 00  returns 0x01 (0001ms, 26848ms total)
T3260 1951:372 JLINK_ReadMem (0xE0001000, 0x0004 Bytes, ...) -- CPU is running -- CPU_ReadMem(4 bytes @ 0xE0001000) -- Data:  01 00 00 40  returns 0x00 (0001ms, 26849ms total)
T3260 1951:373 JLINK_ReadMem (0xE0001000, 0x0004 Bytes, ...) -- CPU is running -- CPU_ReadMem(4 bytes @ 0xE0001000) -- Data:  01 00 00 40  returns 0x00 (0000ms, 26849ms total)
T3260 1951:373 JLINK_ReadMem (0xE0001028, 0x0004 Bytes, ...) -- CPU is running -- CPU_ReadMem(4 bytes @ 0xE0001028) -- Data:  00 00 00 00  returns 0x00 (0001ms, 26850ms total)
T3260 1951:374 JLINK_WriteMem(0xE0001028, 0x0004 Bytes, ...) -- Data:  00 01 00 00 -- CPU is running -- CPU_WriteMem(4 bytes @ 0xE0001028)  returns 0x04 (0001ms, 26851ms total)
T3260 1951:375 JLINK_ReadMem (0xE0001028, 0x0004 Bytes, ...) -- CPU is running -- CPU_ReadMem(4 bytes @ 0xE0001028) -- Data:  00 00 00 00  returns 0x00 (0001ms, 26852ms total)
T3260 1951:376 JLINK_ReadMem (0xE0001038, 0x0004 Bytes, ...) -- CPU is running -- CPU_ReadMem(4 bytes @ 0xE0001038) -- Data:  00 02 00 00  returns 0x00 (0001ms, 26853ms total)
T3260 1951:377 JLINK_WriteMem(0xE0001038, 0x0004 Bytes, ...) -- Data:  00 03 00 00 -- CPU is running -- CPU_WriteMem(4 bytes @ 0xE0001038)  returns 0x04 (0000ms, 26853ms total)
T3260 1951:377 JLINK_ReadMem (0xE0001038, 0x0004 Bytes, ...) -- CPU is running -- CPU_ReadMem(4 bytes @ 0xE0001038) -- Data:  00 03 00 00  returns 0x00 (0001ms, 26854ms total)
T3260 1951:378 JLINK_ReadMem (0xE0001048, 0x0004 Bytes, ...) -- CPU is running -- CPU_ReadMem(4 bytes @ 0xE0001048) -- Data:  00 00 00 00  returns 0x00 (0001ms, 26855ms total)
T3260 1951:379 JLINK_WriteMem(0xE0001048, 0x0004 Bytes, ...) -- Data:  00 01 00 00 -- CPU is running -- CPU_WriteMem(4 bytes @ 0xE0001048)  returns 0x04 (0001ms, 26856ms total)
T3260 1951:380 JLINK_ReadMem (0xE0001048, 0x0004 Bytes, ...) -- CPU is running -- CPU_ReadMem(4 bytes @ 0xE0001048) -- Data:  00 00 00 00  returns 0x00 (0001ms, 26857ms total)
T3260 1951:381 JLINK_ReadMem (0xE0001058, 0x0004 Bytes, ...) -- CPU is running -- CPU_ReadMem(4 bytes @ 0xE0001058) -- Data:  00 00 00 00  returns 0x00 (0000ms, 26857ms total)
T3260 1951:381 JLINK_WriteMem(0xE0001058, 0x0004 Bytes, ...) -- Data:  00 01 00 00 -- CPU is running -- CPU_WriteMem(4 bytes @ 0xE0001058)  returns 0x04 (0001ms, 26858ms total)
T3260 1951:382 JLINK_ReadMem (0xE0001058, 0x0004 Bytes, ...) -- CPU is running -- CPU_ReadMem(4 bytes @ 0xE0001058) -- Data:  00 00 00 00  returns 0x00 (0001ms, 26859ms total)
T3260 1951:383 JLINK_ReadMem (0xE0001024, 0x0004 Bytes, ...) -- CPU is running -- CPU_ReadMem(4 bytes @ 0xE0001024) -- Data:  00 00 00 00  returns 0x00 (0001ms, 26860ms total)
T3260 1951:384 JLINK_WriteMem(0xE0001024, 0x0004 Bytes, ...) -- Data:  1F 00 00 00 -- CPU is running -- CPU_WriteMem(4 bytes @ 0xE0001024)  returns 0x04 (0000ms, 26860ms total)
T3260 1951:384 JLINK_ReadMem (0xE0001024, 0x0004 Bytes, ...) -- CPU is running -- CPU_ReadMem(4 bytes @ 0xE0001024) -- Data:  0F 00 00 00  returns 0x00 (0001ms, 26861ms total)
T3260 1951:385 JLINK_ReadMem (0xE0001034, 0x0004 Bytes, ...) -- CPU is running -- CPU_ReadMem(4 bytes @ 0xE0001034) -- Data:  00 00 00 00  returns 0x00 (0001ms, 26862ms total)
T3260 1951:386 JLINK_WriteMem(0xE0001034, 0x0004 Bytes, ...) -- Data:  1F 00 00 00 -- CPU is running -- CPU_WriteMem(4 bytes @ 0xE0001034)  returns 0x04 (0000ms, 26862ms total)
T3260 1951:386 JLINK_ReadMem (0xE0001034, 0x0004 Bytes, ...) -- CPU is running -- CPU_ReadMem(4 bytes @ 0xE0001034) -- Data:  0F 00 00 00  returns 0x00 (0001ms, 26863ms total)
T3260 1951:387 JLINK_ReadMem (0xE0001044, 0x0004 Bytes, ...) -- CPU is running -- CPU_ReadMem(4 bytes @ 0xE0001044) -- Data:  00 00 00 00  returns 0x00 (0001ms, 26864ms total)
T3260 1951:388 JLINK_WriteMem(0xE0001044, 0x0004 Bytes, ...) -- Data:  1F 00 00 00 -- CPU is running -- CPU_WriteMem(4 bytes @ 0xE0001044)  returns 0x04 (0001ms, 26865ms total)
T3260 1951:389 JLINK_ReadMem (0xE0001044, 0x0004 Bytes, ...) -- CPU is running -- CPU_ReadMem(4 bytes @ 0xE0001044) -- Data:  0F 00 00 00  returns 0x00 (0001ms, 26866ms total)
T3260 1951:390 JLINK_ReadMem (0xE0001054, 0x0004 Bytes, ...) -- CPU is running -- CPU_ReadMem(4 bytes @ 0xE0001054) -- Data:  00 00 00 00  returns 0x00 (0001ms, 26867ms total)
T3260 1951:391 JLINK_WriteMem(0xE0001054, 0x0004 Bytes, ...) -- Data:  1F 00 00 00 -- CPU is running -- CPU_WriteMem(4 bytes @ 0xE0001054)  returns 0x04 (0000ms, 26867ms total)
T3260 1951:391 JLINK_ReadMem (0xE0001054, 0x0004 Bytes, ...) -- CPU is running -- CPU_ReadMem(4 bytes @ 0xE0001054) -- Data:  0F 00 00 00  returns 0x00 (0001ms, 26868ms total)
T3260 1951:392 JLINK_ReadMem (0xE0001028, 0x0004 Bytes, ...) -- CPU is running -- CPU_ReadMem(4 bytes @ 0xE0001028) -- Data:  00 00 00 00  returns 0x00 (0001ms, 26869ms total)
T3260 1951:393 JLINK_ReadMem (0xE0001038, 0x0004 Bytes, ...) -- CPU is running -- CPU_ReadMem(4 bytes @ 0xE0001038) -- Data:  00 03 00 00  returns 0x00 (0001ms, 26870ms total)
T3260 1951:394 JLINK_ReadMem (0xE0001048, 0x0004 Bytes, ...) -- CPU is running -- CPU_ReadMem(4 bytes @ 0xE0001048) -- Data:  00 00 00 00  returns 0x00 (0000ms, 26870ms total)
T3260 1951:394 JLINK_ReadMem (0xE0001058, 0x0004 Bytes, ...) -- CPU is running -- CPU_ReadMem(4 bytes @ 0xE0001058) -- Data:  00 00 00 00  returns 0x00 (0001ms, 26871ms total)
T3260 1951:395 JLINK_WriteMem(0xE0001020, 0x0004 Bytes, ...) -- Data:  00 00 00 00 -- CPU is running -- CPU_WriteMem(4 bytes @ 0xE0001020)  returns 0x04 (0001ms, 26872ms total)
T3260 1951:396 JLINK_WriteMem(0xE0001024, 0x0004 Bytes, ...) -- Data:  00 00 00 00 -- CPU is running -- CPU_WriteMem(4 bytes @ 0xE0001024)  returns 0x04 (0000ms, 26872ms total)
T3260 1951:397 JLINK_WriteMem(0xE0001028, 0x0004 Bytes, ...) -- Data:  00 00 00 00 -- CPU is running -- CPU_WriteMem(4 bytes @ 0xE0001028)  returns 0x04 (0000ms, 26873ms total)
T3260 1951:397 JLINK_WriteMem(0xE0001030, 0x0004 Bytes, ...) -- Data:  00 00 00 00 -- CPU is running -- CPU_WriteMem(4 bytes @ 0xE0001030)  returns 0x04 (0001ms, 26874ms total)
T3260 1951:398 JLINK_WriteMem(0xE0001034, 0x0004 Bytes, ...) -- Data:  00 00 00 00 -- CPU is running -- CPU_WriteMem(4 bytes @ 0xE0001034)  returns 0x04 (0000ms, 26874ms total)
T3260 1951:398 JLINK_WriteMem(0xE0001038, 0x0004 Bytes, ...) -- Data:  00 00 00 00 -- CPU is running -- CPU_WriteMem(4 bytes @ 0xE0001038)  returns 0x04 (0001ms, 26875ms total)
T3260 1951:399 JLINK_WriteMem(0xE0001040, 0x0004 Bytes, ...) -- Data:  00 00 00 00 -- CPU is running -- CPU_WriteMem(4 bytes @ 0xE0001040)  returns 0x04 (0001ms, 26876ms total)
T3260 1951:400 JLINK_WriteMem(0xE0001044, 0x0004 Bytes, ...) -- Data:  00 00 00 00 -- CPU is running -- CPU_WriteMem(4 bytes @ 0xE0001044)  returns 0x04 (0000ms, 26876ms total)
T3260 1951:400 JLINK_WriteMem(0xE0001048, 0x0004 Bytes, ...) -- Data:  00 00 00 00 -- CPU is running -- CPU_WriteMem(4 bytes @ 0xE0001048)  returns 0x04 (0001ms, 26877ms total)
T3260 1951:401 JLINK_WriteMem(0xE0001050, 0x0004 Bytes, ...) -- Data:  00 00 00 00 -- CPU is running -- CPU_WriteMem(4 bytes @ 0xE0001050)  returns 0x04 (0001ms, 26878ms total)
T3260 1951:402 JLINK_WriteMem(0xE0001054, 0x0004 Bytes, ...) -- Data:  00 00 00 00 -- CPU is running -- CPU_WriteMem(4 bytes @ 0xE0001054)  returns 0x04 (0000ms, 26878ms total)
T3260 1951:402 JLINK_WriteMem(0xE0001058, 0x0004 Bytes, ...) -- Data:  00 00 00 00 -- CPU is running -- CPU_WriteMem(4 bytes @ 0xE0001058)  returns 0x04 (0001ms, 26879ms total)
T3260 1951:403 JLINK_Halt()  returns 0x00 (0007ms, 26886ms total)
T3260 1951:411 JLINK_JTAG_GetDeviceID(DeviceIndex = 0)  returns 0x4BA00477 (0000ms, 26886ms total)
T3260 1951:411 JLINK_ReadMemU32(0x400E0940, 0x0001 Items, ...) -- CPU_ReadMem(4 bytes @ 0x400E0940) -- Data:  60 0A 5E 28  returns 0x01 (0001ms, 26887ms total)
T3260 1951:415 JLINK_ReadMemHW(0x00085600, 0x0100 Bytes, ...) -- CPU_ReadMem(256 bytes @ 0x00085600) -- Data:  A5 A5 A5 A5 54 6D 72 20 53 76 63 00 4F 4E 00 00 ...  returns 0x00 (0004ms, 26891ms total)
T3260 1951:419 JLINK_ReadMemHW(0x00085A00, 0x0100 Bytes, ...) -- CPU_ReadMem(256 bytes @ 0x00085A00) -- Data:  00 00 00 00 00 00 00 00 00 00 00 00 00 00 00 00 ...  returns 0x00 (0004ms, 26895ms total)
T3260 1951:428 JLINK_BeginDownload(Flags = 0x00) (0000ms, 26895ms total)
T3260 1951:428 JLINK_WriteMem(0x00080000, 0x0100 Bytes, ...) -- Data:  D8 C6 07 20 B5 1E 08 00 AD 1E 08 00 AD 1E 08 00 ...  returns 0x100 (0000ms, 26895ms total)
T3260 1951:428 JLINK_WriteMem(0x00080100, 0x0100 Bytes, ...) -- Data:  04 48 AF F3 00 80 01 23 23 70 10 BD 38 04 07 20 ...  returns 0x100 (0000ms, 26895ms total)
T3260 1951:428 JLINK_WriteMem(0x00080200, 0x0100 Bytes, ...) -- Data:  55 4A 08 00 0D 2B 08 00 B5 36 08 00 F9 33 08 00 ...  returns 0x100 (0000ms, 26895ms total)
T3260 1951:428 JLINK_WriteMem(0x00080300, 0x0100 Bytes, ...) -- Data:  0D 2B 08 00 B5 36 08 00 F9 33 08 00 AC A6 07 20 ...  returns 0x100 (0000ms, 26895ms total)
T3260 1951:428 JLINK_WriteMem(0x00080400, 0x0100 Bytes, ...) -- Data:  7B 68 07 2B 25 D8 01 A2 52 F8 23 F0 2D 04 08 00 ...  returns 0x100 (0000ms, 26895ms total)
T3260 1951:428 JLINK_WriteMem(0x00080500, 0x0100 Bytes, ...) -- Data:  01 22 1A 70 BB 68 32 2B 02 D1 32 4B 01 22 1A 70 ...  returns 0x100 (0000ms, 26895ms total)
T3260 1951:428 JLINK_WriteMem(0x00080600, 0x0100 Bytes, ...) -- Data:  7B 71 2E 4B 3B 60 38 68 2D 4B 98 47 03 46 BB 71 ...  returns 0x100 (0000ms, 26895ms total)
T3260 1951:428 JLINK_WriteMem(0x00080700, 0x0100 Bytes, ...) -- Data:  1A 78 FB 7B 0D 49 CB 5C 9A 42 02 D0 00 23 BB 73 ...  returns 0x100 (0000ms, 26895ms total)
T3260 1951:428 JLINK_WriteMem(0x00080800, 0x0100 Bytes, ...) -- Data:  0D E0 BB 68 1B 78 7B 60 00 BF 0C 48 79 68 0F 4B ...  returns 0x100 (0000ms, 26895ms total)
T3260 1951:428 JLINK_WriteMem(0x00080900, 0x0100 Bytes, ...) -- Data:  1B 09 08 00 01 23 12 E0 0B 4B 98 47 03 46 00 2B ...  returns 0x100 (0000ms, 26895ms total)
T3260 1951:428 JLINK_WriteMem(0x00080A00, 0x0100 Bytes, ...) -- Data:  70 02 1A 60 19 E0 FB 7A 18 46 0D 4B 98 47 02 46 ...  returns 0x100 (0000ms, 26895ms total)
T3260 1951:428 JLINK_WriteMem(0x00080B00, 0x0100 Bytes, ...) -- Data:  BD 46 80 BD 85 0A 08 00 80 B5 00 AF 06 20 04 4B ...  returns 0x100 (0000ms, 26895ms total)
T3260 1951:428 JLINK_WriteMem(0x00080C00, 0x0100 Bytes, ...) -- Data:  40 51 1C 4B 98 47 57 20 1B 4B 98 47 3B 20 4F F0 ...  returns 0x100 (0000ms, 26895ms total)
T3260 1951:428 JLINK_WriteMem(0x00080D00, 0x0100 Bytes, ...) -- Data:  80 B5 8A B0 00 AF F8 60 B9 60 7A 60 7B 68 46 F2 ...  returns 0x100 (0000ms, 26895ms total)
T3260 1951:428 JLINK_WriteMem(0x00080E00, 0x0100 Bytes, ...) -- Data:  07 02 3B 69 9B 78 01 3B 1B 01 03 F0 70 03 1A 43 ...  returns 0x100 (0000ms, 26895ms total)
T3260 1951:428 JLINK_WriteMem(0x00080F00, 0x0100 Bytes, ...) -- Data:  7B 68 1B 68 23 F0 01 02 7B 68 1A 60 0C 37 BD 46 ...  returns 0x100 (0000ms, 26895ms total)
T3260 1951:428 JLINK_WriteMem(0x00081000, 0x0100 Bytes, ...) -- Data:  1B 68 FB 73 3B 68 1B 79 00 2B 2E D1 FB 7B 7A 68 ...  returns 0x100 (0000ms, 26895ms total)
T3260 1951:428 JLINK_WriteMem(0x00081100, 0x0100 Bytes, ...) -- Data:  10 33 5B 01 0B 44 1A 60 14 37 BD 46 5D F8 04 7B ...  returns 0x100 (0000ms, 26895ms total)
T3260 1951:428 JLINK_WriteMem(0x00081200, 0x0100 Bytes, ...) -- Data:  03 F4 00 03 00 2B 01 D1 01 23 3B E0 3B 68 5B 79 ...  returns 0x100 (0000ms, 26895ms total)
T3260 1951:428 JLINK_WriteMem(0x00081300, 0x0100 Bytes, ...) -- Data:  80 B4 87 B0 00 AF F8 60 B9 60 7A 60 FB 68 7A 68 ...  returns 0x100 (0000ms, 26895ms total)
T3260 1951:428 JLINK_WriteMem(0x00081400, 0x0100 Bytes, ...) -- Data:  00 AF F8 60 B9 60 7A 60 3B 60 F8 68 B9 68 12 4B ...  returns 0x100 (0000ms, 26895ms total)
T3260 1951:428 JLINK_WriteMem(0x00081500, 0x0100 Bytes, ...) -- Data:  02 FA 03 F3 1A 46 FB 68 5A 63 14 37 BD 46 5D F8 ...  returns 0x100 (0000ms, 26895ms total)
T3260 1951:428 JLINK_WriteMem(0x00081600, 0x0100 Bytes, ...) -- Data:  F8 68 4F F0 80 51 1A 46 25 4B 98 47 7B 68 03 F0 ...  returns 0x100 (0000ms, 26895ms total)
T3260 1951:428 JLINK_WriteMem(0x00081700, 0x0100 Bytes, ...) -- Data:  1A 46 20 4B 98 47 36 E0 F8 68 4F F0 80 51 BA 68 ...  returns 0x100 (0000ms, 26895ms total)
T3260 1951:428 JLINK_WriteMem(0x00081800, 0x0100 Bytes, ...) -- Data:  11 46 98 47 0A 4A BB 68 1B 01 13 44 5B 68 DB 43 ...  returns 0x100 (0001ms, 26896ms total)
T3260 1951:429 JLINK_WriteMem(0x00081900, 0x0100 Bytes, ...) -- Data:  00 2B F1 D0 00 23 18 46 14 37 BD 46 5D F8 04 7B ...  returns 0x100 (0000ms, 26896ms total)
T3260 1951:429 JLINK_WriteMem(0x00081A00, 0x0100 Bytes, ...) -- Data:  06 4B 1B 6A 23 F4 5C 13 23 F0 01 03 43 F4 5C 13 ...  returns 0x100 (0000ms, 26896ms total)
T3260 1951:429 JLINK_WriteMem(0x00081B00, 0x0100 Bytes, ...) -- Data:  80 B4 83 B0 00 AF 78 60 7B 68 2C 2B 01 D9 01 23 ...  returns 0x100 (0000ms, 26896ms total)
T3260 1951:429 JLINK_WriteMem(0x00081C00, 0x0100 Bytes, ...) -- Data:  00 23 18 46 24 37 BD 46 5D F8 04 7B 70 47 00 BF ...  returns 0x100 (0000ms, 26896ms total)
T3260 1951:429 JLINK_WriteMem(0x00081D00, 0x0100 Bytes, ...) -- Data:  80 B4 83 B0 00 AF 78 60 7B 68 88 22 1A 60 0C 37 ...  returns 0x100 (0000ms, 26896ms total)
T3260 1951:429 JLINK_WriteMem(0x00081E00, 0x0100 Bytes, ...) -- Data:  70 47 00 BF 80 B4 85 B0 00 AF 78 60 39 60 4F F4 ...  returns 0x100 (0000ms, 26896ms total)
T3260 1951:429 JLINK_WriteMem(0x00081F00, 0x0100 Bytes, ...) -- Data:  12 4A 7B 68 23 F0 60 43 23 F0 7F 03 93 60 7B 68 ...  returns 0x100 (0000ms, 26896ms total)
T3260 1951:429 JLINK_WriteMem(0x00082000, 0x0100 Bytes, ...) -- Data:  30 4B 31 4A 1A 60 1C E0 2E 4B 30 4A 1A 60 2B 4B ...  returns 0x100 (0000ms, 26896ms total)
T3260 1951:429 JLINK_WriteMem(0x00082100, 0x0100 Bytes, ...) -- Data:  08 D8 19 4B 4F F4 80 72 1A 60 18 4B 4F F4 80 72 ...  returns 0x100 (0000ms, 26896ms total)
T3260 1951:429 JLINK_WriteMem(0x00082200, 0x0100 Bytes, ...) -- Data:  3B 68 7A 68 1A 61 7B 68 1B 68 5A 1C 7B 68 1A 60 ...  returns 0x100 (0000ms, 26896ms total)
T3260 1951:429 JLINK_WriteMem(0x00082300, 0x0100 Bytes, ...) -- Data:  BA 68 FB 68 1A 60 FB 68 04 3B FB 60 09 4A FB 68 ...  returns 0x100 (0000ms, 26896ms total)
T3260 1951:429 JLINK_WriteMem(0x00082400, 0x0100 Bytes, ...) -- Data:  13 4B 1B 68 03 F4 E0 62 11 4B 1A 60 BB 68 DA B2 ...  returns 0x100 (0000ms, 26896ms total)
T3260 1951:429 JLINK_WriteMem(0x00082500, 0x0100 Bytes, ...) -- Data:  19 25 08 00 EF F3 11 80 4F F0 A0 01 81 F3 11 88 ...  returns 0x100 (0000ms, 26896ms total)
T3260 1951:429 JLINK_WriteMem(0x00082600, 0x0100 Bytes, ...) -- Data:  08 4B 1B 68 9A 42 02 D9 04 4B 98 47 FE E7 08 37 ...  returns 0x100 (0000ms, 26896ms total)
T3260 1951:429 JLINK_WriteMem(0x00082700, 0x0100 Bytes, ...) -- Data:  5A 68 7B 68 D2 1A BB 68 5A 60 7B 69 7A 68 5A 60 ...  returns 0x100 (0000ms, 26896ms total)
T3260 1951:429 JLINK_WriteMem(0x00082800, 0x0100 Bytes, ...) -- Data:  DB 43 1A 40 BB 68 5A 60 0A 4B 98 47 BB 68 5A 68 ...  returns 0x100 (0000ms, 26896ms total)
T3260 1951:429 JLINK_WriteMem(0x00082900, 0x0100 Bytes, ...) -- Data:  F4 A4 07 20 FC A4 07 20 80 B4 85 B0 00 AF 78 60 ...  returns 0x100 (0000ms, 26896ms total)
T3260 1951:429 JLINK_WriteMem(0x00082A00, 0x0100 Bytes, ...) -- Data:  DB 6B 01 3B F9 68 09 6C 01 FB 03 F3 1A 44 FB 68 ...  returns 0x100 (0000ms, 26896ms total)
T3260 1951:429 JLINK_WriteMem(0x00082B00, 0x0100 Bytes, ...) -- Data:  B9 29 08 00 A1 27 08 00 05 25 08 00 80 B5 8A B0 ...  returns 0x100 (0000ms, 26896ms total)
T3260 1951:429 JLINK_WriteMem(0x00082C00, 0x0100 Bytes, ...) -- Data:  98 47 2D 4B 98 47 26 4B 98 47 3B 6A 5B 6C B3 F1 ...  returns 0x100 (0000ms, 26896ms total)
T3260 1951:429 JLINK_WriteMem(0x00082D00, 0x0100 Bytes, ...) -- Data:  00 23 00 2B 02 D1 2C 4B 98 47 FE E7 3B 68 02 2B ...  returns 0x100 (0000ms, 26896ms total)
T3260 1951:429 JLINK_WriteMem(0x00082E00, 0x0100 Bytes, ...) -- Data:  00 23 00 2B 02 D1 60 4B 98 47 FE E7 5F 4B 98 47 ...  returns 0x100 (0000ms, 26896ms total)
T3260 1951:429 JLINK_WriteMem(0x00082F00, 0x0100 Bytes, ...) -- Data:  98 47 07 F1 14 02 3B 1D 10 46 19 46 28 4B 98 47 ...  returns 0x100 (0000ms, 26896ms total)
T3260 1951:429 JLINK_WriteMem(0x00083000, 0x0100 Bytes, ...) -- Data:  1A D1 FB 68 9A 68 FB 68 1B 6C 10 46 B9 68 1A 46 ...  returns 0x100 (0000ms, 26896ms total)
T3260 1951:429 JLINK_WriteMem(0x00083100, 0x0100 Bytes, ...) -- Data:  00 AF 78 60 23 4B 98 47 14 E0 7B 68 5B 6A 00 2B ...  returns 0x100 (0000ms, 26896ms total)
T3260 1951:429 JLINK_WriteMem(0x00083200, 0x0100 Bytes, ...) -- Data:  18 46 10 37 BD 46 80 BD 89 24 08 00 CD 24 08 00 ...  returns 0x100 (0001ms, 26897ms total)
T3260 1951:430 JLINK_WriteMem(0x00083300, 0x0100 Bytes, ...) -- Data:  02 D0 7B 6B BA 69 1A 60 30 4B 98 47 30 4B 1B 68 ...  returns 0x100 (0000ms, 26897ms total)
T3260 1951:430 JLINK_WriteMem(0x00083400, 0x0100 Bytes, ...) -- Data:  39 60 00 23 7B 61 7B 68 00 2B 02 D1 2F 4B 98 47 ...  returns 0x100 (0000ms, 26897ms total)
T3260 1951:430 JLINK_WriteMem(0x00083500, 0x0100 Bytes, ...) -- Data:  01 93 00 23 02 93 00 23 03 93 12 48 12 49 82 22 ...  returns 0x100 (0000ms, 26897ms total)
T3260 1951:430 JLINK_WriteMem(0x00083600, 0x0100 Bytes, ...) -- Data:  9B 00 24 4A 1A 44 3B 68 04 33 10 46 19 46 22 4B ...  returns 0x100 (0000ms, 26897ms total)
T3260 1951:430 JLINK_WriteMem(0x00083700, 0x0100 Bytes, ...) -- Data:  1B 68 3B 61 3B 69 00 2B 18 D1 47 4B 1B 68 1B 68 ...  returns 0x100 (0000ms, 26897ms total)
T3260 1951:430 JLINK_WriteMem(0x00083800, 0x0100 Bytes, ...) -- Data:  14 4B 1B 68 5A 1C 13 4B 1A 60 13 4B 1B 68 00 2B ...  returns 0x100 (0000ms, 26897ms total)
T3260 1951:430 JLINK_WriteMem(0x00083900, 0x0100 Bytes, ...) -- Data:  BB 60 BB 68 5B 68 5A 68 BB 68 5A 60 BB 68 5A 68 ...  returns 0x100 (0000ms, 26897ms total)
T3260 1951:430 JLINK_WriteMem(0x00083A00, 0x0100 Bytes, ...) -- Data:  39 60 7B 68 00 2B 02 D1 14 4B 98 47 FE E7 14 4B ...  returns 0x100 (0000ms, 26897ms total)
T3260 1951:430 JLINK_WriteMem(0x00083B00, 0x0100 Bytes, ...) -- Data:  01 22 1A 60 01 E0 00 23 FB 60 FB 68 18 46 10 37 ...  returns 0x100 (0000ms, 26897ms total)
T3260 1951:430 JLINK_WriteMem(0x00083C00, 0x0100 Bytes, ...) -- Data:  18 46 10 37 BD 46 80 BD 05 25 08 00 89 24 08 00 ...  returns 0x100 (0000ms, 26897ms total)
T3260 1951:430 JLINK_WriteMem(0x00083D00, 0x0100 Bytes, ...) -- Data:  7B 60 0C E0 7A 68 13 46 9B 00 13 44 9B 00 11 4A ...  returns 0x100 (0000ms, 26897ms total)
T3260 1951:430 JLINK_WriteMem(0x00083E00, 0x0100 Bytes, ...) -- Data:  E5 3E 08 00 80 B5 82 B0 00 AF 78 60 13 4B 1B 68 ...  returns 0x100 (0000ms, 26897ms total)
T3260 1951:430 JLINK_WriteMem(0x00083F00, 0x0100 Bytes, ...) -- Data:  80 BD 00 BF A1 27 08 00 80 B4 83 B0 00 AF 0E 4B ...  returns 0x100 (0000ms, 26897ms total)
T3260 1951:430 JLINK_WriteMem(0x00084000, 0x0100 Bytes, ...) -- Data:  9B 00 0B 44 1B 68 00 2B 0A D1 FB 68 DB 6A 01 22 ...  returns 0x100 (0000ms, 26897ms total)
T3260 1951:430 JLINK_WriteMem(0x00084100, 0x0100 Bytes, ...) -- Data:  1A 6C BB 68 DA 62 BB 68 DB 6A C3 F1 05 02 BB 68 ...  returns 0x100 (0000ms, 26897ms total)
T3260 1951:430 JLINK_WriteMem(0x00084200, 0x0100 Bytes, ...) -- Data:  FB 61 1D 4B 1B 68 00 2B 30 D0 BB 68 3B 61 7B 68 ...  returns 0x100 (0000ms, 26897ms total)
T3260 1951:430 JLINK_WriteMem(0x00084300, 0x0100 Bytes, ...) -- Data:  F1 41 08 00 05 25 08 00 80 B5 84 B0 00 AF 78 60 ...  returns 0x100 (0000ms, 26897ms total)
T3260 1951:430 JLINK_WriteMem(0x00084400, 0x0100 Bytes, ...) -- Data:  24 A6 07 20 80 B5 84 B0 00 AF 78 60 0C 4B 98 47 ...  returns 0x100 (0000ms, 26897ms total)
T3260 1951:430 JLINK_WriteMem(0x00084500, 0x0100 Bytes, ...) -- Data:  B8 61 BB 68 09 2B 59 D8 01 A2 52 F8 23 F0 00 BF ...  returns 0x100 (0000ms, 26897ms total)
T3260 1951:430 JLINK_WriteMem(0x00084600, 0x0100 Bytes, ...) -- Data:  90 B5 89 B0 02 AF 3D E0 27 4B 1B 68 DB 68 1B 68 ...  returns 0x100 (0000ms, 26897ms total)
T3260 1951:430 JLINK_WriteMem(0x00084700, 0x0100 Bytes, ...) -- Data:  0A 4B 98 47 FE E7 0A 4B 98 47 80 BD 89 24 08 00 ...  returns 0x100 (0000ms, 26897ms total)
T3260 1951:430 JLINK_WriteMem(0x00084800, 0x0100 Bytes, ...) -- Data:  18 46 80 BD D9 47 08 00 80 B5 82 B0 00 AF 1B 48 ...  returns 0x100 (0000ms, 26897ms total)
T3260 1951:430 JLINK_WriteMem(0x00084900, 0x0100 Bytes, ...) -- Data:  0E 4B 98 47 05 E0 FB 79 01 33 FB 71 FB 79 07 2B ...  returns 0x100 (0001ms, 26898ms total)
T3260 1951:431 JLINK_WriteMem(0x00084A00, 0x0100 Bytes, ...) -- Data:  80 B4 83 B0 00 AF 78 60 7B 68 00 22 1A 60 7B 68 ...  returns 0x100 (0000ms, 26898ms total)
T3260 1951:431 JLINK_WriteMem(0x00084B00, 0x0100 Bytes, ...) -- Data:  95 4C 08 00 80 B5 8A B0 00 AF 78 60 07 F1 08 03 ...  returns 0x100 (0000ms, 26898ms total)
T3260 1951:431 JLINK_WriteMem(0x00084C00, 0x0100 Bytes, ...) -- Data:  8C A6 07 20 25 4C 08 00 01 4A 08 00 00 40 0B 40 ...  returns 0x100 (0000ms, 26898ms total)
T3260 1951:431 JLINK_WriteMem(0x00084D00, 0x0100 Bytes, ...) -- Data:  70 47 00 BF 80 B5 82 B0 00 AF 01 23 7B 60 2B 48 ...  returns 0x100 (0000ms, 26898ms total)
T3260 1951:431 JLINK_WriteMem(0x00084E00, 0x0100 Bytes, ...) -- Data:  00 AF 78 60 3D 48 3E 4B 98 47 3C 4B 07 22 1A 60 ...  returns 0x100 (0000ms, 26898ms total)
T3260 1951:431 JLINK_WriteMem(0x00084F00, 0x0100 Bytes, ...) -- Data:  01 4A 08 00 00 40 0B 40 F5 0F 08 00 38 A6 07 20 ...  returns 0x100 (0000ms, 26898ms total)
T3260 1951:431 JLINK_WriteMem(0x00085000, 0x0100 Bytes, ...) -- Data:  FE E7 00 BF 05 25 08 00 80 B5 82 B0 00 AF 78 60 ...  returns 0x100 (0000ms, 26898ms total)
T3260 1951:431 JLINK_WriteMem(0x00085100, 0x0100 Bytes, ...) -- Data:  0A 4B 7A 68 53 F8 22 30 18 46 4F F0 60 51 08 4B ...  returns 0x100 (0000ms, 26898ms total)
T3260 1951:431 JLINK_WriteMem(0x00085200, 0x0100 Bytes, ...) -- Data:  28 D9 40 EA 01 03 9B 07 13 D0 05 78 0C 78 A5 42 ...  returns 0x100 (0000ms, 26898ms total)
T3260 1951:431 JLINK_WriteMem(0x00085300, 0x0100 Bytes, ...) -- Data:  70 47 00 BF 08 2A 13 D3 8B 07 B1 D0 10 F0 03 03 ...  returns 0x100 (0000ms, 26898ms total)
T3260 1951:431 JLINK_WriteMem(0x00085400, 0x0100 Bytes, ...) -- Data:  00 F0 18 B8 38 B5 09 4D 09 4C 64 1B A4 10 18 BF ...  returns 0x100 (0000ms, 26898ms total)
T3260 1951:431 JLINK_WriteMem(0x00085500, 0x0100 Bytes, ...) -- Data:  53 20 41 52 45 20 4E 4F 4D 49 4E 41 4C 2C 20 53 ...  returns 0x100 (0000ms, 26898ms total)
T3260 1951:431 JLINK_WriteMem(0x00085600, 0x0100 Bytes, ...) -- Data:  00 00 00 00 A5 A5 A5 A5 A5 A5 A5 A5 A5 A5 A5 A5 ...  returns 0x100 (0000ms, 26898ms total)
T3260 1951:431 JLINK_WriteMem(0x00085700, 0x0100 Bytes, ...) -- Data:  00 00 00 00 00 00 00 00 00 00 00 00 00 00 00 00 ...  returns 0x100 (0000ms, 26898ms total)
T3260 1951:431 JLINK_WriteMem(0x00085800, 0x0100 Bytes, ...) -- Data:  00 00 00 00 00 00 00 00 00 00 00 00 00 00 00 00 ...  returns 0x100 (0000ms, 26898ms total)
T3260 1951:431 JLINK_WriteMem(0x00085900, 0x0100 Bytes, ...) -- Data:  00 00 00 00 00 00 00 00 00 00 00 00 00 00 00 00 ...  returns 0x100 (0000ms, 26898ms total)
T3260 1951:431 JLINK_WriteMem(0x00085A00, 0x0100 Bytes, ...) -- Data:  00 00 00 00 00 00 00 00 00 00 00 00 00 00 00 00 ...  returns 0x100 (0000ms, 26898ms total)
T3260 1951:521 JLINK_EndDownload() -- -------------------------------------- -- Start of determining dirty areas -- End of determining dirty areas -- Start of preparing flash programming -- Calculating RAM usage -- RAM usage = 3884 Bytes -- Preserving registers -- Preparing memory -- Determining CPU clock frequency -- CPU clock frequency: 84010 kHz -- CPU frequency = 84010 kHz -- Preparing target -- Downloading RAMCode -- Using alternate TurboMode RAMCode -- Checking target RAM -- Preparing RAMCode
 -- End of preparing flash programming -- CPU is running at 84010 kHz. -- Start of comparing flash -- CRC check was estimated as fastest method -- Comparing range 0x80000 - 0x85AFF (91 Sectors, 22 KB), using multi-block CRC calculation -- CRC does not match for sectors 0-87 -- Comparing range 0x85800 - 0x85AFF (3 Sectors, 768 Bytes), using alternative multi-block CRC calculation -- All CRCs match -- End of comparing flash -- Start of erasing sectors
 -- Erasing range 0x00080000 - 0x000857FF ( 88 Sectors, 22 KB) -- End of erasing sectors -- Start of flash programming -- Programming range 0x00080000 - 0x000857FF ( 88 Sectors, 22 KB) -- End of flash programming -- Flash programming performed for 1 range (22528 bytes) -- 0x80000 - 0x857FF (088 Sectors, 22 KB) -- Start of verifying flash -- Checksum calculation was estimated as fastest method -- End of verifying flash -- Start of restoring -- Restore RAMCode -- Restore content of target memory
 -- Restore target -- Restore memory -- Restore content of registers -- End of restoring -- Total time needed: 0.514s (Prepare: 0.125s, Compare: 0.017s, Erase: 0.000s, Program: 0.359s, Verify: 0.001s, Restore: 0.011s)  returns 0x5800 (0521ms, 27419ms total)
T3260 1952:043 JLINK_ResetPullsRESET(ON) (0000ms, 27419ms total)
T3260 1952:043 JLINK_ResetNoHalt() >0x2F8 JTAG>TotalIRLen = 4, IRPrint = 0x01 >0x30 JTAG> >0x210 JTAG> >0x70 JTAG> >0x40 JTAG> >0x40 JTAG> >0x40 JTAG> >0x48 JTAG> >0x78 JTAG> >0x40 JTAG> >0x30 JTAG> >0x40 JTAG> >0x40 JTAG> >0x30 JTAG> >0x40 JTAG> >0x48 JTAG>Found Cortex-M3 r2p0, Little endian. -- CPU_WriteMem(4 bytes @ 0xE0002000) -- CPU_ReadMem(4 bytes @ 0xE000EDF0) -- CPU_ReadMem(4 bytes @ 0xE0002000)FPUnit: 6 code (BP) slots and 2 literal slots -- CPU_ReadMem(4 bytes @ 0xE000EDFC)
 -- CPU_ReadMem(4 bytes @ 0xE0001000) -- CPU_ReadMem(4 bytes @ 0xE00FF010)TPIU fitted. -- CPU_ReadMem(4 bytes @ 0xE00FF014) -- CPU_ReadMem(4 bytes @ 0xE00FF018)
                JLINK_Reset() -- CPU_ReadMem(16 bytes @ 0x20000000) -- CPU_WriteMem(16 bytes @ 0x20000000) -- CPU_ReadMem(4 bytes @ 0xE000EDFC) -- CPU_WriteMem(4 bytes @ 0xE000EDFC) -- CPU_WriteMem(4 bytes @ 0xE000ED0C) -- CPU_ReadMem(4 bytes @ 0xE000EDF0) -- CPU_ReadMem(4 bytes @ 0xE000EDF0) -- CPU_WriteMem(4 bytes @ 0xE000EDFC) -- CPU_WriteMem(16 bytes @ 0x20000000) -- CPU_WriteMem(4 bytes @ 0xE0002000) -- CPU_ReadMem(4 bytes @ 0xE000EDFC) -- CPU_ReadMem(4 bytes @ 0xE0001000) (0042ms, 0042ms total)
                JLINK_Go() -- CPU_WriteMem(4 bytes @ 0xE0001004) (0002ms, 0044ms total)
               (0064ms, 27483ms total)
T3260 1952:450 JLINK_Close() >0x78 JTAG> >0x08 JTAG> (0003ms, 27486ms total)
T3260 1952:450  (0003ms, 27486ms total)
T3260 1952:450 Closed (0003ms, 27486ms total)
